
T3228 000:242 SEGGER J-Link V4.54a Log File (0000ms, 0242ms total)
T3228 000:242 DLL Compiled: Sep 17 2012 15:58:45 (0000ms, 0242ms total)
T3228 000:242 Logging started @ 2013-06-05 10:49 (0000ms, 0242ms total)
T3228 000:242 JLINK_SetWarnOutHandler(...) (0000ms, 0242ms total)
T3228 000:242 JLINK_OpenEx(...)
Firmware: J-Link ARM-OB STM32 compiled Aug 22 2012 19:52:04
Hardware: V7.00
Feature(s): RDI,FlashDL,FlashBP,JFlash,GDBFull  returns O.K. (0019ms, 0261ms total)
T3228 000:261 JLINK_SetErrorOutHandler(...) (0000ms, 0261ms total)
T3228 000:261 JLINK_ExecCommand("ProjectFile = "C:\LH_WORK\01_work\uCOSii-uCGUI K4S561632C_32M_16BIT 4.3 inch LCD LPC1788\MDK-ARM\JLinkSettings.ini"", ...)  returns 0x00 (0001ms, 0262ms total)
T3228 000:267 JLINK_ExecCommand("Device = LPC1788", ...)
                JLINK_ExecCommand("map ram 0x10000000 - 0x1000FFFF", ...)  returns 0x00 (0000ms, 0000ms total)
                JLINK_AddMirrorAreaEx(Addr = 0x00000000, Size = 0x00000000) (0000ms, 0000ms total)
              Device "LPC1788" selected (512 KB flash, 64 KB RAM).  returns 0x00 (0004ms, 0266ms total)
T3228 000:271 JLINK_ExecCommand("DisableConnectionTimeout", ...)  returns 0x00 (0000ms, 0266ms total)
T3228 000:271 JLINK_TIF_Select(JLINKARM_TIF_SWD)  returns 0x00 (0003ms, 0269ms total)
T3228 000:274 JLINK_SetSpeed(10000) (0001ms, 0270ms total)
T3228 000:275 JLINK_GetHardwareVersion()  returns 0x11170 (0000ms, 0270ms total)
T3228 000:275 JLINK_GetDLLVersion()  returns 45401 (0000ms, 0270ms total)
T3228 000:275 JLINK_GetFirmwareString(...) (0000ms, 0270ms total)
T3228 000:282 JLINK_GetDLLVersion()  returns 45401 (0000ms, 0270ms total)
T3228 000:282 JLINK_GetCompileDateTime() (0000ms, 0270ms total)
T3228 000:283 JLINK_GetFirmwareString(...) (0001ms, 0271ms total)
T3228 000:285 JLINK_GetHardwareVersion()  returns 0x11170 (0000ms, 0271ms total)
T3228 000:291 JLINK_GetId() >0x108 TIF>Found SWD-DP with ID 0x2BA01477 >0x0D TIF> >0x21 TIF> >0x0D TIF> >0x28 TIF> >0x0D TIF> >0x28 TIF> >0x0D TIF> >0x21 TIF> >0x0D TIF> >0x21 TIF> >0x0D TIF> >0x28 TIF> >0x0D TIF> >0x21 TIF> >0x0D TIF> >0x21 TIF> >0x0D TIF> >0x21 TIF> >0x0D TIF> >0x21 TIF> >0x0D TIF> >0x21 TIF> >0x0D TIF> >0x28 TIF> >0x0D TIF> >0x28 TIF> >0x0D TIF> >0x21 TIF> >0x0D TIF> >0x21 TIF> >0x0D TIF> >0x28 TIF> >0x0D TIF> >0x21 TIF> >0x0D TIF> >0x21 TIF> >0x0D TIF> >0x28 TIF> >0x0D TIF>
 >0x28 TIF> >0x0D TIF> >0x28 TIF> >0x0D TIF> >0x21 TIF> >0x0D TIF> >0x21 TIF> >0x0D TIF> >0x28 TIF> >0x0D TIF> >0x28 TIF> >0x0D TIF> >0x28 TIF> >0x0D TIF> >0x28 TIF> >0x0D TIF> >0x28 TIF> >0x0D TIF> >0x21 TIF> >0x0D TIF> >0x21 TIF> >0x0D TIF> >0x21 TIF>TPIU fitted.ETM fitted. >0x0D TIF> >0x28 TIF> >0x0D TIF> >0x21 TIF> >0x0D TIF> >0x21 TIF> >0x0D TIF> >0x28 TIF> >0x0D TIF> >0x21 TIF> >0x0D TIF> >0x21 TIF>FPUnit: 6 code (BP) slots and 2 literal slots >0x0D TIF> >0x28 TIF> >0x0D TIF> >0x21 TIF> >0x0D TIF>
 >0x21 TIF> >0x0D TIF> >0x28 TIF> >0x0D TIF> >0x28 TIF> >0x0D TIF> >0x28 TIF> >0x0D TIF> >0x21 TIF> >0x0D TIF> >0x21 TIF> >0x0D TIF> >0x28 TIF> >0x0D TIF> >0x21 TIF> >0x0D TIF> >0x21 TIF> >0x0D TIF> >0x28 TIF> >0x0D TIF> >0x21 TIF> >0x0D TIF> >0x21 TIF>Found Cortex-M3 r2p0, Little endian. >0x0D TIF> >0x21 TIF>  returns 0x2BA01477 (0079ms, 0350ms total)
T3228 000:370 JLINK_GetDeviceFamily()  returns 3 (0000ms, 0350ms total)
T3228 000:372 JLINK_ReadMem (0xE00FFFF0, 0x0010 Bytes, ...) -- CPU is running -- CPU_ReadMem(16 bytes @ 0xE00FFFF0) -- Data:  0D 00 00 00 10 00 00 00 05 00 00 00 B1 00 00 00  returns 0x00 (0002ms, 0352ms total)
T3228 000:374 JLINK_ReadMem (0xE00FFFD0, 0x0020 Bytes, ...) -- CPU is running -- CPU_ReadMem(32 bytes @ 0xE00FFFD0) -- Data:  00 00 00 00 00 00 00 00 00 00 00 00 00 00 00 00 ...  returns 0x00 (0001ms, 0353ms total)
T3228 000:375 JLINK_ReadMem (0xE00FF000, 0x0018 Bytes, ...) -- CPU is running -- CPU_ReadMem(24 bytes @ 0xE00FF000) -- Data:  03 F0 F0 FF 03 20 F0 FF 03 30 F0 FF 03 10 F0 FF ...  returns 0x00 (0002ms, 0355ms total)
T3228 000:377 JLINK_ReadMemU32(0xE000ED00, 0x0001 Items, ...) -- CPU is running -- CPU_ReadMem(4 bytes @ 0xE000ED00) -- Data:  30 C2 2F 41  returns 0x01 (0001ms, 0356ms total)
T3228 000:378 JLINK_SetResetType(JLINKARM_RESET_TYPE_HALT_DBGRQ)  returns JLINKARM_RESET_TYPE_HALT_WP (0000ms, 0356ms total)
T3228 000:378 JLINK_Reset() -- CPU is running -- CPU_WriteMem(4 bytes @ 0xE000EDF0) -- CPU is running -- CPU_WriteMem(4 bytes @ 0xE000EDFC) >0x35 TIF> -- CPU is running -- CPU_WriteMem(4 bytes @ 0xE000ED0C) -- CPU is running -- CPU_ReadMem(4 bytes @ 0xE000EDF0) -- CPU is running -- CPU_ReadMem(4 bytes @ 0xE000EDF0) -- CPU is running -- CPU_WriteMem(4 bytes @ 0xE000EDF0) -- CPU is running -- CPU_WriteMem(4 bytes @ 0xE000EDFC) -- CPU is running -- CPU_ReadMem(4 bytes @ 0xE000EDF0)
 -- CPU_WriteMem(4 bytes @ 0xE0002000) (0022ms, 0378ms total)
T3228 000:400 JLINK_Halt()  returns 0x00 (0000ms, 0378ms total)
T3228 000:400 JLINK_IsHalted()  returns TRUE (0000ms, 0378ms total)
T3228 000:400 JLINK_ReadMemU32(0xE000EDF0, 0x0001 Items, ...) -- CPU_ReadMem(4 bytes @ 0xE000EDF0) -- Data:  03 00 03 00  returns 0x01 (0001ms, 0379ms total)
T3228 000:401 JLINK_WriteU32(0xE000EDF0, 0xA05F0003) -- CPU_WriteMem(4 bytes @ 0xE000EDF0)  returns 0x00 (0002ms, 0381ms total)
T3228 000:403 JLINK_WriteU32(0xE000EDFC, 0x01000000) -- CPU_WriteMem(4 bytes @ 0xE000EDFC)  returns 0x00 (0001ms, 0382ms total)
T3228 000:411 JLINK_GetHWStatus(...)  returns 0x00 (0000ms, 0382ms total)
T3228 000:417 JLINK_GetNumBPUnits(Type = 0xFFFFFF00)  returns 0x06 (0000ms, 0382ms total)
T3228 000:417 JLINK_GetNumBPUnits(Type = 0xF0)  returns 0x2000 (0000ms, 0382ms total)
T3228 000:417 JLINK_GetNumWPUnits()  returns 0x04 (0000ms, 0382ms total)
T3228 000:422 JLINK_GetSpeed()  returns 0xFA0 (0000ms, 0382ms total)
T3228 000:425 JLINK_ReadMemU32(0xE000E004, 0x0001 Items, ...) -- CPU_ReadMem(4 bytes @ 0xE000E004) -- Data:  01 00 00 00  returns 0x01 (0001ms, 0383ms total)
T3228 000:426 JLINK_ReadMemU32(0xE000E004, 0x0001 Items, ...) -- CPU_ReadMem(4 bytes @ 0xE000E004) -- Data:  01 00 00 00  returns 0x01 (0001ms, 0384ms total)
T3228 000:427 JLINK_WriteMem(0xE0001000, 0x001C Bytes, ...) -- Data:  01 00 00 00 00 00 00 00 00 00 00 00 00 00 00 00 ... -- CPU_WriteMem(28 bytes @ 0xE0001000)  returns 0x1C (0002ms, 0386ms total)
T3228 000:429 JLINK_ReadMem (0xE0001000, 0x001C Bytes, ...) -- CPU_ReadMem(28 bytes @ 0xE0001000) -- Data:  01 00 00 40 00 00 00 00 00 00 00 00 00 00 00 00 ...  returns 0x00 (0001ms, 0387ms total)
T3228 000:430 JLINK_Halt()  returns 0x00 (0000ms, 0387ms total)
T3228 000:430 JLINK_IsHalted()  returns TRUE (0000ms, 0387ms total)
T3228 000:493 JLINK_WriteMem(0x10000000, 0x01E4 Bytes, ...) -- Data:  00 BE 0A E0 0D 78 2D 06 68 40 08 24 40 00 00 D3 ... -- CPU_WriteMem(484 bytes @ 0x10000000)  returns 0x1E4 (0007ms, 0394ms total)
T3228 000:500 JLINK_WriteReg(R0, 0x00000000)  returns 0x00 (0000ms, 0394ms total)
T3228 000:500 JLINK_WriteReg(R1, 0x00B71B00)  returns 0x00 (0000ms, 0394ms total)
T3228 000:500 JLINK_WriteReg(R2, 0x00000001)  returns 0x00 (0000ms, 0394ms total)
T3228 000:500 JLINK_WriteReg(R3, 0x00000000)  returns 0x00 (0000ms, 0394ms total)
T3228 000:500 JLINK_WriteReg(R4, 0x00000000)  returns 0x00 (0000ms, 0394ms total)
T3228 000:500 JLINK_WriteReg(R5, 0x00000000)  returns 0x00 (0000ms, 0394ms total)
T3228 000:500 JLINK_WriteReg(R6, 0x00000000)  returns 0x00 (0000ms, 0394ms total)
T3228 000:500 JLINK_WriteReg(R7, 0x00000000)  returns 0x00 (0000ms, 0394ms total)
T3228 000:500 JLINK_WriteReg(R8, 0x00000000)  returns 0x00 (0000ms, 0394ms total)
T3228 000:500 JLINK_WriteReg(R9, 0x100001DC)  returns 0x00 (0000ms, 0394ms total)
T3228 000:500 JLINK_WriteReg(R10, 0x00000000)  returns 0x00 (0000ms, 0394ms total)
T3228 000:500 JLINK_WriteReg(R11, 0x00000000)  returns 0x00 (0000ms, 0394ms total)
T3228 000:500 JLINK_WriteReg(R12, 0x00000000)  returns 0x00 (0000ms, 0394ms total)
T3228 000:500 JLINK_WriteReg(R13, 0x10000800)  returns 0x00 (0000ms, 0394ms total)
T3228 000:500 JLINK_WriteReg(R14, 0x10000001)  returns 0x00 (0000ms, 0394ms total)
T3228 000:500 JLINK_WriteReg(R15, 0x10000044)  returns 0x00 (0000ms, 0394ms total)
T3228 000:500 JLINK_WriteReg(XPSR, 0x01000000)  returns 0x00 (0000ms, 0394ms total)
T3228 000:500 JLINK_WriteReg(MSP, 0x10000800)  returns 0x00 (0000ms, 0394ms total)
T3228 000:500 JLINK_WriteReg(PSP, 0x10000800)  returns 0x00 (0000ms, 0394ms total)
T3228 000:500 JLINK_WriteReg(CFBP, 0x00000000)  returns 0x00 (0000ms, 0394ms total)
T3228 000:500 JLINK_SetBPEx(Addr = 0x10000000, Type = 0xFFFFFFF2)  returns 0x00000001 (0000ms, 0394ms total)
T3228 000:500 JLINK_Go() -- CPU_WriteMem(4 bytes @ 0xE0002008) -- CPU_WriteMem(4 bytes @ 0xE000200C) -- CPU_WriteMem(4 bytes @ 0xE0002010) -- CPU_WriteMem(4 bytes @ 0xE0002014) -- CPU_WriteMem(4 bytes @ 0xE0002018) -- CPU_WriteMem(4 bytes @ 0xE000201C) (0010ms, 0404ms total)
T3228 000:510 JLINK_IsHalted()  returns TRUE (0004ms, 0408ms total)
T3228 000:515 JLINK_ReadReg(R15)  returns 0x10000000 (0000ms, 0404ms total)
T3228 000:515 JLINK_ClrBPEx(BPHandle = 0x00000001)  returns 0x00 (0000ms, 0404ms total)
T3228 000:515 JLINK_ReadReg(R0)  returns 0x00000000 (0000ms, 0404ms total)
T3228 000:532 JLINK_WriteReg(R0, 0x00000000)  returns 0x00 (0000ms, 0404ms total)
T3228 000:532 JLINK_WriteReg(R1, 0x00001000)  returns 0x00 (0000ms, 0404ms total)
T3228 000:532 JLINK_WriteReg(R2, 0x000000FF)  returns 0x00 (0000ms, 0404ms total)
T3228 000:532 JLINK_WriteReg(R3, 0x00000000)  returns 0x00 (0000ms, 0404ms total)
T3228 000:532 JLINK_WriteReg(R4, 0x00000000)  returns 0x00 (0000ms, 0404ms total)
T3228 000:532 JLINK_WriteReg(R5, 0x00000000)  returns 0x00 (0000ms, 0404ms total)
T3228 000:532 JLINK_WriteReg(R6, 0x00000000)  returns 0x00 (0000ms, 0404ms total)
T3228 000:532 JLINK_WriteReg(R7, 0x00000000)  returns 0x00 (0000ms, 0404ms total)
T3228 000:532 JLINK_WriteReg(R8, 0x00000000)  returns 0x00 (0000ms, 0404ms total)
T3228 000:532 JLINK_WriteReg(R9, 0x100001DC)  returns 0x00 (0000ms, 0404ms total)
T3228 000:532 JLINK_WriteReg(R10, 0x00000000)  returns 0x00 (0000ms, 0404ms total)
T3228 000:532 JLINK_WriteReg(R11, 0x00000000)  returns 0x00 (0000ms, 0404ms total)
T3228 000:532 JLINK_WriteReg(R12, 0x00000000)  returns 0x00 (0000ms, 0404ms total)
T3228 000:532 JLINK_WriteReg(R13, 0x10000800)  returns 0x00 (0000ms, 0404ms total)
T3228 000:532 JLINK_WriteReg(R14, 0x10000001)  returns 0x00 (0000ms, 0404ms total)
T3228 000:532 JLINK_WriteReg(R15, 0x10000020)  returns 0x00 (0000ms, 0404ms total)
T3228 000:532 JLINK_WriteReg(XPSR, 0x01000000)  returns 0x00 (0000ms, 0404ms total)
T3228 000:532 JLINK_WriteReg(MSP, 0x10000800)  returns 0x00 (0000ms, 0404ms total)
T3228 000:532 JLINK_WriteReg(PSP, 0x10000800)  returns 0x00 (0000ms, 0404ms total)
T3228 000:532 JLINK_WriteReg(CFBP, 0x00000000)  returns 0x00 (0000ms, 0404ms total)
T3228 000:532 JLINK_SetBPEx(Addr = 0x10000000, Type = 0xFFFFFFF2)  returns 0x00000002 (0000ms, 0404ms total)
T3228 000:532 JLINK_Go() (0003ms, 0407ms total)
T3228 000:535 JLINK_IsHalted()  returns TRUE (0004ms, 0411ms total)
T3228 000:539 JLINK_ReadReg(R15)  returns 0x10000000 (0000ms, 0407ms total)
T3228 000:539 JLINK_ClrBPEx(BPHandle = 0x00000002)  returns 0x00 (0000ms, 0407ms total)
T3228 000:539 JLINK_ReadReg(R0)  returns 0x00000001 (0000ms, 0407ms total)
T3228 000:540 JLINK_WriteReg(R0, 0x00000000)  returns 0x00 (0000ms, 0408ms total)
T3228 000:540 JLINK_WriteReg(R1, 0x00001000)  returns 0x00 (0000ms, 0408ms total)
T3228 000:540 JLINK_WriteReg(R2, 0x000000FF)  returns 0x00 (0000ms, 0408ms total)
T3228 000:540 JLINK_WriteReg(R3, 0x00000000)  returns 0x00 (0000ms, 0408ms total)
T3228 000:540 JLINK_WriteReg(R4, 0x00000000)  returns 0x00 (0000ms, 0408ms total)
T3228 000:540 JLINK_WriteReg(R5, 0x00000000)  returns 0x00 (0000ms, 0408ms total)
T3228 000:540 JLINK_WriteReg(R6, 0x00000000)  returns 0x00 (0000ms, 0408ms total)
T3228 000:540 JLINK_WriteReg(R7, 0x00000000)  returns 0x00 (0000ms, 0408ms total)
T3228 000:540 JLINK_WriteReg(R8, 0x00000000)  returns 0x00 (0000ms, 0408ms total)
T3228 000:540 JLINK_WriteReg(R9, 0x100001DC)  returns 0x00 (0000ms, 0408ms total)
T3228 000:540 JLINK_WriteReg(R10, 0x00000000)  returns 0x00 (0000ms, 0408ms total)
T3228 000:540 JLINK_WriteReg(R11, 0x00000000)  returns 0x00 (0000ms, 0408ms total)
T3228 000:540 JLINK_WriteReg(R12, 0x00000000)  returns 0x00 (0000ms, 0408ms total)
T3228 000:540 JLINK_WriteReg(R13, 0x10000800)  returns 0x00 (0000ms, 0408ms total)
T3228 000:540 JLINK_WriteReg(R14, 0x10000001)  returns 0x00 (0000ms, 0408ms total)
T3228 000:540 JLINK_WriteReg(R15, 0x10000110)  returns 0x00 (0000ms, 0408ms total)
T3228 000:540 JLINK_WriteReg(XPSR, 0x01000000)  returns 0x00 (0000ms, 0408ms total)
T3228 000:540 JLINK_WriteReg(MSP, 0x10000800)  returns 0x00 (0000ms, 0408ms total)
T3228 000:540 JLINK_WriteReg(PSP, 0x10000800)  returns 0x00 (0000ms, 0408ms total)
T3228 000:540 JLINK_WriteReg(CFBP, 0x00000000)  returns 0x00 (0000ms, 0408ms total)
T3228 000:540 JLINK_SetBPEx(Addr = 0x10000000, Type = 0xFFFFFFF2)  returns 0x00000003 (0000ms, 0408ms total)
T3228 000:540 JLINK_Go() (0003ms, 0411ms total)
T3228 000:543 JLINK_IsHalted()  returns FALSE (0001ms, 0412ms total)
T3228 000:594 JLINK_IsHalted()  returns FALSE (0001ms, 0412ms total)
T3228 000:645 JLINK_IsHalted()  returns TRUE (0004ms, 0415ms total)
T3228 000:649 JLINK_ReadReg(R15)  returns 0x10000000 (0000ms, 0411ms total)
T3228 000:649 JLINK_ClrBPEx(BPHandle = 0x00000003)  returns 0x00 (0000ms, 0411ms total)
T3228 000:649 JLINK_ReadReg(R0)  returns 0x00000000 (0000ms, 0411ms total)
T3228 000:650 JLINK_WriteReg(R0, 0x00001000)  returns 0x00 (0000ms, 0411ms total)
T3228 000:650 JLINK_WriteReg(R1, 0x00001000)  returns 0x00 (0000ms, 0411ms total)
T3228 000:650 JLINK_WriteReg(R2, 0x000000FF)  returns 0x00 (0000ms, 0411ms total)
T3228 000:650 JLINK_WriteReg(R3, 0x00000000)  returns 0x00 (0000ms, 0411ms total)
T3228 000:650 JLINK_WriteReg(R4, 0x00000000)  returns 0x00 (0000ms, 0411ms total)
T3228 000:650 JLINK_WriteReg(R5, 0x00000000)  returns 0x00 (0000ms, 0411ms total)
T3228 000:650 JLINK_WriteReg(R6, 0x00000000)  returns 0x00 (0000ms, 0411ms total)
T3228 000:650 JLINK_WriteReg(R7, 0x00000000)  returns 0x00 (0000ms, 0411ms total)
T3228 000:650 JLINK_WriteReg(R8, 0x00000000)  returns 0x00 (0000ms, 0411ms total)
T3228 000:650 JLINK_WriteReg(R9, 0x100001DC)  returns 0x00 (0000ms, 0411ms total)
T3228 000:650 JLINK_WriteReg(R10, 0x00000000)  returns 0x00 (0000ms, 0411ms total)
T3228 000:650 JLINK_WriteReg(R11, 0x00000000)  returns 0x00 (0000ms, 0411ms total)
T3228 000:650 JLINK_WriteReg(R12, 0x00000000)  returns 0x00 (0000ms, 0411ms total)
T3228 000:650 JLINK_WriteReg(R13, 0x10000800)  returns 0x00 (0000ms, 0411ms total)
T3228 000:650 JLINK_WriteReg(R14, 0x10000001)  returns 0x00 (0000ms, 0411ms total)
T3228 000:650 JLINK_WriteReg(R15, 0x10000020)  returns 0x00 (0000ms, 0411ms total)
T3228 000:650 JLINK_WriteReg(XPSR, 0x01000000)  returns 0x00 (0000ms, 0411ms total)
T3228 000:650 JLINK_WriteReg(MSP, 0x10000800)  returns 0x00 (0000ms, 0411ms total)
T3228 000:650 JLINK_WriteReg(PSP, 0x10000800)  returns 0x00 (0000ms, 0411ms total)
T3228 000:650 JLINK_WriteReg(CFBP, 0x00000000)  returns 0x00 (0000ms, 0411ms total)
T3228 000:650 JLINK_SetBPEx(Addr = 0x10000000, Type = 0xFFFFFFF2)  returns 0x00000004 (0000ms, 0411ms total)
T3228 000:650 JLINK_Go() (0003ms, 0414ms total)
T3228 000:653 JLINK_IsHalted()  returns TRUE (0004ms, 0418ms total)
T3228 000:657 JLINK_ReadReg(R15)  returns 0x10000000 (0001ms, 0415ms total)
T3228 000:658 JLINK_ClrBPEx(BPHandle = 0x00000004)  returns 0x00 (0000ms, 0415ms total)
T3228 000:658 JLINK_ReadReg(R0)  returns 0x00000001 (0000ms, 0415ms total)
T3228 000:658 JLINK_WriteReg(R0, 0x00001000)  returns 0x00 (0000ms, 0415ms total)
T3228 000:658 JLINK_WriteReg(R1, 0x00001000)  returns 0x00 (0000ms, 0415ms total)
T3228 000:658 JLINK_WriteReg(R2, 0x000000FF)  returns 0x00 (0000ms, 0415ms total)
T3228 000:658 JLINK_WriteReg(R3, 0x00000000)  returns 0x00 (0000ms, 0415ms total)
T3228 000:658 JLINK_WriteReg(R4, 0x00000000)  returns 0x00 (0000ms, 0415ms total)
T3228 000:658 JLINK_WriteReg(R5, 0x00000000)  returns 0x00 (0000ms, 0415ms total)
T3228 000:658 JLINK_WriteReg(R6, 0x00000000)  returns 0x00 (0000ms, 0415ms total)
T3228 000:658 JLINK_WriteReg(R7, 0x00000000)  returns 0x00 (0000ms, 0415ms total)
T3228 000:658 JLINK_WriteReg(R8, 0x00000000)  returns 0x00 (0000ms, 0415ms total)
T3228 000:658 JLINK_WriteReg(R9, 0x100001DC)  returns 0x00 (0000ms, 0415ms total)
T3228 000:658 JLINK_WriteReg(R10, 0x00000000)  returns 0x00 (0000ms, 0415ms total)
T3228 000:658 JLINK_WriteReg(R11, 0x00000000)  returns 0x00 (0000ms, 0415ms total)
T3228 000:658 JLINK_WriteReg(R12, 0x00000000)  returns 0x00 (0000ms, 0415ms total)
T3228 000:658 JLINK_WriteReg(R13, 0x10000800)  returns 0x00 (0000ms, 0415ms total)
T3228 000:658 JLINK_WriteReg(R14, 0x10000001)  returns 0x00 (0000ms, 0415ms total)
T3228 000:658 JLINK_WriteReg(R15, 0x10000110)  returns 0x00 (0000ms, 0415ms total)
T3228 000:658 JLINK_WriteReg(XPSR, 0x01000000)  returns 0x00 (0000ms, 0415ms total)
T3228 000:658 JLINK_WriteReg(MSP, 0x10000800)  returns 0x00 (0000ms, 0415ms total)
T3228 000:658 JLINK_WriteReg(PSP, 0x10000800)  returns 0x00 (0000ms, 0415ms total)
T3228 000:658 JLINK_WriteReg(CFBP, 0x00000000)  returns 0x00 (0000ms, 0415ms total)
T3228 000:658 JLINK_SetBPEx(Addr = 0x10000000, Type = 0xFFFFFFF2)  returns 0x00000005 (0000ms, 0415ms total)
T3228 000:658 JLINK_Go() (0003ms, 0418ms total)
T3228 000:661 JLINK_IsHalted()  returns FALSE (0000ms, 0418ms total)
T3228 000:711 JLINK_IsHalted()  returns FALSE (0001ms, 0419ms total)
T3228 000:762 JLINK_IsHalted()  returns TRUE (0004ms, 0422ms total)
T3228 000:766 JLINK_ReadReg(R15)  returns 0x10000000 (0000ms, 0418ms total)
T3228 000:766 JLINK_ClrBPEx(BPHandle = 0x00000005)  returns 0x00 (0000ms, 0418ms total)
T3228 000:766 JLINK_ReadReg(R0)  returns 0x00000000 (0000ms, 0418ms total)
T3228 000:767 JLINK_WriteReg(R0, 0x00002000)  returns 0x00 (0000ms, 0418ms total)
T3228 000:767 JLINK_WriteReg(R1, 0x00001000)  returns 0x00 (0000ms, 0418ms total)
T3228 000:767 JLINK_WriteReg(R2, 0x000000FF)  returns 0x00 (0000ms, 0418ms total)
T3228 000:767 JLINK_WriteReg(R3, 0x00000000)  returns 0x00 (0000ms, 0418ms total)
T3228 000:767 JLINK_WriteReg(R4, 0x00000000)  returns 0x00 (0000ms, 0418ms total)
T3228 000:767 JLINK_WriteReg(R5, 0x00000000)  returns 0x00 (0000ms, 0418ms total)
T3228 000:767 JLINK_WriteReg(R6, 0x00000000)  returns 0x00 (0000ms, 0418ms total)
T3228 000:767 JLINK_WriteReg(R7, 0x00000000)  returns 0x00 (0000ms, 0418ms total)
T3228 000:767 JLINK_WriteReg(R8, 0x00000000)  returns 0x00 (0000ms, 0418ms total)
T3228 000:767 JLINK_WriteReg(R9, 0x100001DC)  returns 0x00 (0000ms, 0418ms total)
T3228 000:767 JLINK_WriteReg(R10, 0x00000000)  returns 0x00 (0000ms, 0418ms total)
T3228 000:767 JLINK_WriteReg(R11, 0x00000000)  returns 0x00 (0000ms, 0418ms total)
T3228 000:767 JLINK_WriteReg(R12, 0x00000000)  returns 0x00 (0000ms, 0418ms total)
T3228 000:767 JLINK_WriteReg(R13, 0x10000800)  returns 0x00 (0000ms, 0418ms total)
T3228 000:767 JLINK_WriteReg(R14, 0x10000001)  returns 0x00 (0000ms, 0418ms total)
T3228 000:767 JLINK_WriteReg(R15, 0x10000020)  returns 0x00 (0000ms, 0418ms total)
T3228 000:767 JLINK_WriteReg(XPSR, 0x01000000)  returns 0x00 (0000ms, 0418ms total)
T3228 000:767 JLINK_WriteReg(MSP, 0x10000800)  returns 0x00 (0001ms, 0419ms total)
T3228 000:768 JLINK_WriteReg(PSP, 0x10000800)  returns 0x00 (0000ms, 0419ms total)
T3228 000:768 JLINK_WriteReg(CFBP, 0x00000000)  returns 0x00 (0000ms, 0419ms total)
T3228 000:768 JLINK_SetBPEx(Addr = 0x10000000, Type = 0xFFFFFFF2)  returns 0x00000006 (0000ms, 0419ms total)
T3228 000:768 JLINK_Go() (0003ms, 0422ms total)
T3228 000:771 JLINK_IsHalted()  returns TRUE (0004ms, 0426ms total)
T3228 000:775 JLINK_ReadReg(R15)  returns 0x10000000 (0000ms, 0422ms total)
T3228 000:775 JLINK_ClrBPEx(BPHandle = 0x00000006)  returns 0x00 (0000ms, 0422ms total)
T3228 000:775 JLINK_ReadReg(R0)  returns 0x00000001 (0000ms, 0422ms total)
T3228 000:775 JLINK_WriteReg(R0, 0x00002000)  returns 0x00 (0000ms, 0422ms total)
T3228 000:775 JLINK_WriteReg(R1, 0x00001000)  returns 0x00 (0000ms, 0422ms total)
T3228 000:775 JLINK_WriteReg(R2, 0x000000FF)  returns 0x00 (0000ms, 0422ms total)
T3228 000:775 JLINK_WriteReg(R3, 0x00000000)  returns 0x00 (0000ms, 0422ms total)
T3228 000:775 JLINK_WriteReg(R4, 0x00000000)  returns 0x00 (0000ms, 0422ms total)
T3228 000:775 JLINK_WriteReg(R5, 0x00000000)  returns 0x00 (0000ms, 0422ms total)
T3228 000:775 JLINK_WriteReg(R6, 0x00000000)  returns 0x00 (0000ms, 0422ms total)
T3228 000:775 JLINK_WriteReg(R7, 0x00000000)  returns 0x00 (0000ms, 0422ms total)
T3228 000:775 JLINK_WriteReg(R8, 0x00000000)  returns 0x00 (0000ms, 0422ms total)
T3228 000:775 JLINK_WriteReg(R9, 0x100001DC)  returns 0x00 (0000ms, 0422ms total)
T3228 000:775 JLINK_WriteReg(R10, 0x00000000)  returns 0x00 (0001ms, 0423ms total)
T3228 000:776 JLINK_WriteReg(R11, 0x00000000)  returns 0x00 (0000ms, 0423ms total)
T3228 000:776 JLINK_WriteReg(R12, 0x00000000)  returns 0x00 (0000ms, 0423ms total)
T3228 000:776 JLINK_WriteReg(R13, 0x10000800)  returns 0x00 (0000ms, 0423ms total)
T3228 000:776 JLINK_WriteReg(R14, 0x10000001)  returns 0x00 (0000ms, 0423ms total)
T3228 000:776 JLINK_WriteReg(R15, 0x10000110)  returns 0x00 (0000ms, 0423ms total)
T3228 000:776 JLINK_WriteReg(XPSR, 0x01000000)  returns 0x00 (0000ms, 0423ms total)
T3228 000:776 JLINK_WriteReg(MSP, 0x10000800)  returns 0x00 (0000ms, 0423ms total)
T3228 000:776 JLINK_WriteReg(PSP, 0x10000800)  returns 0x00 (0000ms, 0423ms total)
T3228 000:776 JLINK_WriteReg(CFBP, 0x00000000)  returns 0x00 (0000ms, 0423ms total)
T3228 000:776 JLINK_SetBPEx(Addr = 0x10000000, Type = 0xFFFFFFF2)  returns 0x00000007 (0000ms, 0423ms total)
T3228 000:776 JLINK_Go() (0003ms, 0426ms total)
T3228 000:779 JLINK_IsHalted()  returns FALSE (0001ms, 0427ms total)
T3228 000:830 JLINK_IsHalted()  returns FALSE (0001ms, 0427ms total)
T3228 000:881 JLINK_IsHalted()  returns TRUE (0005ms, 0431ms total)
T3228 000:886 JLINK_ReadReg(R15)  returns 0x10000000 (0000ms, 0426ms total)
T3228 000:886 JLINK_ClrBPEx(BPHandle = 0x00000007)  returns 0x00 (0000ms, 0426ms total)
T3228 000:886 JLINK_ReadReg(R0)  returns 0x00000000 (0000ms, 0426ms total)
T3228 000:887 JLINK_WriteReg(R0, 0x00003000)  returns 0x00 (0000ms, 0426ms total)
T3228 000:887 JLINK_WriteReg(R1, 0x00001000)  returns 0x00 (0001ms, 0427ms total)
T3228 000:888 JLINK_WriteReg(R2, 0x000000FF)  returns 0x00 (0000ms, 0427ms total)
T3228 000:888 JLINK_WriteReg(R3, 0x00000000)  returns 0x00 (0000ms, 0427ms total)
T3228 000:888 JLINK_WriteReg(R4, 0x00000000)  returns 0x00 (0000ms, 0427ms total)
T3228 000:888 JLINK_WriteReg(R5, 0x00000000)  returns 0x00 (0000ms, 0427ms total)
T3228 000:888 JLINK_WriteReg(R6, 0x00000000)  returns 0x00 (0000ms, 0427ms total)
T3228 000:888 JLINK_WriteReg(R7, 0x00000000)  returns 0x00 (0000ms, 0427ms total)
T3228 000:888 JLINK_WriteReg(R8, 0x00000000)  returns 0x00 (0000ms, 0427ms total)
T3228 000:888 JLINK_WriteReg(R9, 0x100001DC)  returns 0x00 (0000ms, 0427ms total)
T3228 000:888 JLINK_WriteReg(R10, 0x00000000)  returns 0x00 (0000ms, 0427ms total)
T3228 000:888 JLINK_WriteReg(R11, 0x00000000)  returns 0x00 (0000ms, 0427ms total)
T3228 000:888 JLINK_WriteReg(R12, 0x00000000)  returns 0x00 (0000ms, 0427ms total)
T3228 000:888 JLINK_WriteReg(R13, 0x10000800)  returns 0x00 (0000ms, 0427ms total)
T3228 000:888 JLINK_WriteReg(R14, 0x10000001)  returns 0x00 (0000ms, 0427ms total)
T3228 000:888 JLINK_WriteReg(R15, 0x10000020)  returns 0x00 (0000ms, 0427ms total)
T3228 000:888 JLINK_WriteReg(XPSR, 0x01000000)  returns 0x00 (0000ms, 0427ms total)
T3228 000:888 JLINK_WriteReg(MSP, 0x10000800)  returns 0x00 (0000ms, 0427ms total)
T3228 000:888 JLINK_WriteReg(PSP, 0x10000800)  returns 0x00 (0000ms, 0427ms total)
T3228 000:888 JLINK_WriteReg(CFBP, 0x00000000)  returns 0x00 (0000ms, 0427ms total)
T3228 000:888 JLINK_SetBPEx(Addr = 0x10000000, Type = 0xFFFFFFF2)  returns 0x00000008 (0000ms, 0427ms total)
T3228 000:888 JLINK_Go() (0002ms, 0429ms total)
T3228 000:891 JLINK_IsHalted()  returns TRUE (0003ms, 0433ms total)
T3228 000:894 JLINK_ReadReg(R15)  returns 0x10000000 (0000ms, 0430ms total)
T3228 000:894 JLINK_ClrBPEx(BPHandle = 0x00000008)  returns 0x00 (0000ms, 0430ms total)
T3228 000:894 JLINK_ReadReg(R0)  returns 0x00000001 (0000ms, 0430ms total)
T3228 000:894 JLINK_WriteReg(R0, 0x00003000)  returns 0x00 (0001ms, 0431ms total)
T3228 000:895 JLINK_WriteReg(R1, 0x00001000)  returns 0x00 (0000ms, 0431ms total)
T3228 000:895 JLINK_WriteReg(R2, 0x000000FF)  returns 0x00 (0000ms, 0431ms total)
T3228 000:895 JLINK_WriteReg(R3, 0x00000000)  returns 0x00 (0000ms, 0431ms total)
T3228 000:895 JLINK_WriteReg(R4, 0x00000000)  returns 0x00 (0000ms, 0431ms total)
T3228 000:895 JLINK_WriteReg(R5, 0x00000000)  returns 0x00 (0000ms, 0431ms total)
T3228 000:895 JLINK_WriteReg(R6, 0x00000000)  returns 0x00 (0000ms, 0431ms total)
T3228 000:895 JLINK_WriteReg(R7, 0x00000000)  returns 0x00 (0000ms, 0431ms total)
T3228 000:895 JLINK_WriteReg(R8, 0x00000000)  returns 0x00 (0000ms, 0431ms total)
T3228 000:895 JLINK_WriteReg(R9, 0x100001DC)  returns 0x00 (0000ms, 0431ms total)
T3228 000:895 JLINK_WriteReg(R10, 0x00000000)  returns 0x00 (0000ms, 0431ms total)
T3228 000:895 JLINK_WriteReg(R11, 0x00000000)  returns 0x00 (0000ms, 0431ms total)
T3228 000:895 JLINK_WriteReg(R12, 0x00000000)  returns 0x00 (0000ms, 0431ms total)
T3228 000:895 JLINK_WriteReg(R13, 0x10000800)  returns 0x00 (0000ms, 0431ms total)
T3228 000:895 JLINK_WriteReg(R14, 0x10000001)  returns 0x00 (0000ms, 0431ms total)
T3228 000:895 JLINK_WriteReg(R15, 0x10000110)  returns 0x00 (0000ms, 0431ms total)
T3228 000:895 JLINK_WriteReg(XPSR, 0x01000000)  returns 0x00 (0000ms, 0431ms total)
T3228 000:895 JLINK_WriteReg(MSP, 0x10000800)  returns 0x00 (0000ms, 0431ms total)
T3228 000:895 JLINK_WriteReg(PSP, 0x10000800)  returns 0x00 (0000ms, 0431ms total)
T3228 000:895 JLINK_WriteReg(CFBP, 0x00000000)  returns 0x00 (0000ms, 0431ms total)
T3228 000:895 JLINK_SetBPEx(Addr = 0x10000000, Type = 0xFFFFFFF2)  returns 0x00000009 (0000ms, 0431ms total)
T3228 000:895 JLINK_Go() (0003ms, 0434ms total)
T3228 000:898 JLINK_IsHalted()  returns FALSE (0000ms, 0434ms total)
T3228 000:948 JLINK_IsHalted()  returns FALSE (0001ms, 0435ms total)
T3228 000:999 JLINK_IsHalted()  returns TRUE (0003ms, 0437ms total)
T3228 001:002 JLINK_ReadReg(R15)  returns 0x10000000 (0001ms, 0435ms total)
T3228 001:003 JLINK_ClrBPEx(BPHandle = 0x00000009)  returns 0x00 (0000ms, 0435ms total)
T3228 001:003 JLINK_ReadReg(R0)  returns 0x00000000 (0000ms, 0435ms total)
T3228 001:003 JLINK_WriteReg(R0, 0x00004000)  returns 0x00 (0000ms, 0435ms total)
T3228 001:003 JLINK_WriteReg(R1, 0x00001000)  returns 0x00 (0000ms, 0435ms total)
T3228 001:003 JLINK_WriteReg(R2, 0x000000FF)  returns 0x00 (0001ms, 0436ms total)
T3228 001:004 JLINK_WriteReg(R3, 0x00000000)  returns 0x00 (0000ms, 0436ms total)
T3228 001:004 JLINK_WriteReg(R4, 0x00000000)  returns 0x00 (0000ms, 0436ms total)
T3228 001:004 JLINK_WriteReg(R5, 0x00000000)  returns 0x00 (0000ms, 0436ms total)
T3228 001:004 JLINK_WriteReg(R6, 0x00000000)  returns 0x00 (0000ms, 0436ms total)
T3228 001:004 JLINK_WriteReg(R7, 0x00000000)  returns 0x00 (0000ms, 0436ms total)
T3228 001:004 JLINK_WriteReg(R8, 0x00000000)  returns 0x00 (0000ms, 0436ms total)
T3228 001:004 JLINK_WriteReg(R9, 0x100001DC)  returns 0x00 (0000ms, 0436ms total)
T3228 001:004 JLINK_WriteReg(R10, 0x00000000)  returns 0x00 (0000ms, 0436ms total)
T3228 001:004 JLINK_WriteReg(R11, 0x00000000)  returns 0x00 (0000ms, 0436ms total)
T3228 001:004 JLINK_WriteReg(R12, 0x00000000)  returns 0x00 (0000ms, 0436ms total)
T3228 001:004 JLINK_WriteReg(R13, 0x10000800)  returns 0x00 (0000ms, 0436ms total)
T3228 001:004 JLINK_WriteReg(R14, 0x10000001)  returns 0x00 (0000ms, 0436ms total)
T3228 001:004 JLINK_WriteReg(R15, 0x10000020)  returns 0x00 (0000ms, 0436ms total)
T3228 001:004 JLINK_WriteReg(XPSR, 0x01000000)  returns 0x00 (0000ms, 0436ms total)
T3228 001:004 JLINK_WriteReg(MSP, 0x10000800)  returns 0x00 (0000ms, 0436ms total)
T3228 001:004 JLINK_WriteReg(PSP, 0x10000800)  returns 0x00 (0000ms, 0436ms total)
T3228 001:004 JLINK_WriteReg(CFBP, 0x00000000)  returns 0x00 (0000ms, 0436ms total)
T3228 001:004 JLINK_SetBPEx(Addr = 0x10000000, Type = 0xFFFFFFF2)  returns 0x0000000A (0000ms, 0436ms total)
T3228 001:004 JLINK_Go() (0003ms, 0439ms total)
T3228 001:007 JLINK_IsHalted()  returns TRUE (0004ms, 0443ms total)
T3228 001:011 JLINK_ReadReg(R15)  returns 0x10000000 (0000ms, 0439ms total)
T3228 001:011 JLINK_ClrBPEx(BPHandle = 0x0000000A)  returns 0x00 (0000ms, 0439ms total)
T3228 001:011 JLINK_ReadReg(R0)  returns 0x00000001 (0001ms, 0440ms total)
T3228 001:012 JLINK_WriteReg(R0, 0x00004000)  returns 0x00 (0000ms, 0440ms total)
T3228 001:012 JLINK_WriteReg(R1, 0x00001000)  returns 0x00 (0000ms, 0440ms total)
T3228 001:012 JLINK_WriteReg(R2, 0x000000FF)  returns 0x00 (0000ms, 0440ms total)
T3228 001:012 JLINK_WriteReg(R3, 0x00000000)  returns 0x00 (0000ms, 0440ms total)
T3228 001:012 JLINK_WriteReg(R4, 0x00000000)  returns 0x00 (0000ms, 0440ms total)
T3228 001:012 JLINK_WriteReg(R5, 0x00000000)  returns 0x00 (0000ms, 0440ms total)
T3228 001:012 JLINK_WriteReg(R6, 0x00000000)  returns 0x00 (0000ms, 0440ms total)
T3228 001:012 JLINK_WriteReg(R7, 0x00000000)  returns 0x00 (0000ms, 0440ms total)
T3228 001:012 JLINK_WriteReg(R8, 0x00000000)  returns 0x00 (0000ms, 0440ms total)
T3228 001:012 JLINK_WriteReg(R9, 0x100001DC)  returns 0x00 (0000ms, 0440ms total)
T3228 001:012 JLINK_WriteReg(R10, 0x00000000)  returns 0x00 (0000ms, 0440ms total)
T3228 001:012 JLINK_WriteReg(R11, 0x00000000)  returns 0x00 (0000ms, 0440ms total)
T3228 001:012 JLINK_WriteReg(R12, 0x00000000)  returns 0x00 (0000ms, 0440ms total)
T3228 001:012 JLINK_WriteReg(R13, 0x10000800)  returns 0x00 (0000ms, 0440ms total)
T3228 001:012 JLINK_WriteReg(R14, 0x10000001)  returns 0x00 (0000ms, 0440ms total)
T3228 001:012 JLINK_WriteReg(R15, 0x10000110)  returns 0x00 (0000ms, 0440ms total)
T3228 001:012 JLINK_WriteReg(XPSR, 0x01000000)  returns 0x00 (0000ms, 0440ms total)
T3228 001:012 JLINK_WriteReg(MSP, 0x10000800)  returns 0x00 (0000ms, 0440ms total)
T3228 001:012 JLINK_WriteReg(PSP, 0x10000800)  returns 0x00 (0000ms, 0440ms total)
T3228 001:012 JLINK_WriteReg(CFBP, 0x00000000)  returns 0x00 (0000ms, 0440ms total)
T3228 001:012 JLINK_SetBPEx(Addr = 0x10000000, Type = 0xFFFFFFF2)  returns 0x0000000B (0000ms, 0440ms total)
T3228 001:012 JLINK_Go() (0002ms, 0442ms total)
T3228 001:014 JLINK_IsHalted()  returns FALSE (0001ms, 0443ms total)
T3228 001:065 JLINK_IsHalted()  returns FALSE (0000ms, 0442ms total)
T3228 001:115 JLINK_IsHalted()  returns TRUE (0003ms, 0445ms total)
T3228 001:118 JLINK_ReadReg(R15)  returns 0x10000000 (0001ms, 0443ms total)
T3228 001:119 JLINK_ClrBPEx(BPHandle = 0x0000000B)  returns 0x00 (0000ms, 0443ms total)
T3228 001:119 JLINK_ReadReg(R0)  returns 0x00000000 (0000ms, 0443ms total)
T3228 001:120 JLINK_WriteReg(R0, 0x00005000)  returns 0x00 (0000ms, 0443ms total)
T3228 001:120 JLINK_WriteReg(R1, 0x00001000)  returns 0x00 (0000ms, 0443ms total)
T3228 001:120 JLINK_WriteReg(R2, 0x000000FF)  returns 0x00 (0000ms, 0443ms total)
T3228 001:120 JLINK_WriteReg(R3, 0x00000000)  returns 0x00 (0000ms, 0443ms total)
T3228 001:120 JLINK_WriteReg(R4, 0x00000000)  returns 0x00 (0000ms, 0443ms total)
T3228 001:120 JLINK_WriteReg(R5, 0x00000000)  returns 0x00 (0000ms, 0443ms total)
T3228 001:120 JLINK_WriteReg(R6, 0x00000000)  returns 0x00 (0000ms, 0443ms total)
T3228 001:120 JLINK_WriteReg(R7, 0x00000000)  returns 0x00 (0000ms, 0443ms total)
T3228 001:120 JLINK_WriteReg(R8, 0x00000000)  returns 0x00 (0000ms, 0443ms total)
T3228 001:120 JLINK_WriteReg(R9, 0x100001DC)  returns 0x00 (0000ms, 0443ms total)
T3228 001:120 JLINK_WriteReg(R10, 0x00000000)  returns 0x00 (0000ms, 0443ms total)
T3228 001:120 JLINK_WriteReg(R11, 0x00000000)  returns 0x00 (0000ms, 0443ms total)
T3228 001:120 JLINK_WriteReg(R12, 0x00000000)  returns 0x00 (0000ms, 0443ms total)
T3228 001:120 JLINK_WriteReg(R13, 0x10000800)  returns 0x00 (0000ms, 0443ms total)
T3228 001:120 JLINK_WriteReg(R14, 0x10000001)  returns 0x00 (0000ms, 0443ms total)
T3228 001:120 JLINK_WriteReg(R15, 0x10000020)  returns 0x00 (0000ms, 0443ms total)
T3228 001:120 JLINK_WriteReg(XPSR, 0x01000000)  returns 0x00 (0000ms, 0443ms total)
T3228 001:120 JLINK_WriteReg(MSP, 0x10000800)  returns 0x00 (0000ms, 0443ms total)
T3228 001:120 JLINK_WriteReg(PSP, 0x10000800)  returns 0x00 (0000ms, 0443ms total)
T3228 001:120 JLINK_WriteReg(CFBP, 0x00000000)  returns 0x00 (0000ms, 0443ms total)
T3228 001:120 JLINK_SetBPEx(Addr = 0x10000000, Type = 0xFFFFFFF2)  returns 0x0000000C (0000ms, 0443ms total)
T3228 001:120 JLINK_Go() (0003ms, 0446ms total)
T3228 001:123 JLINK_IsHalted()  returns TRUE (0004ms, 0450ms total)
T3228 001:127 JLINK_ReadReg(R15)  returns 0x10000000 (0000ms, 0446ms total)
T3228 001:127 JLINK_ClrBPEx(BPHandle = 0x0000000C)  returns 0x00 (0000ms, 0446ms total)
T3228 001:127 JLINK_ReadReg(R0)  returns 0x00000001 (0000ms, 0446ms total)
T3228 001:127 JLINK_WriteReg(R0, 0x00005000)  returns 0x00 (0000ms, 0446ms total)
T3228 001:127 JLINK_WriteReg(R1, 0x00001000)  returns 0x00 (0000ms, 0446ms total)
T3228 001:127 JLINK_WriteReg(R2, 0x000000FF)  returns 0x00 (0000ms, 0446ms total)
T3228 001:127 JLINK_WriteReg(R3, 0x00000000)  returns 0x00 (0000ms, 0446ms total)
T3228 001:127 JLINK_WriteReg(R4, 0x00000000)  returns 0x00 (0000ms, 0446ms total)
T3228 001:127 JLINK_WriteReg(R5, 0x00000000)  returns 0x00 (0000ms, 0446ms total)
T3228 001:127 JLINK_WriteReg(R6, 0x00000000)  returns 0x00 (0000ms, 0446ms total)
T3228 001:127 JLINK_WriteReg(R7, 0x00000000)  returns 0x00 (0000ms, 0446ms total)
T3228 001:127 JLINK_WriteReg(R8, 0x00000000)  returns 0x00 (0000ms, 0446ms total)
T3228 001:127 JLINK_WriteReg(R9, 0x100001DC)  returns 0x00 (0000ms, 0446ms total)
T3228 001:127 JLINK_WriteReg(R10, 0x00000000)  returns 0x00 (0000ms, 0446ms total)
T3228 001:127 JLINK_WriteReg(R11, 0x00000000)  returns 0x00 (0001ms, 0447ms total)
T3228 001:128 JLINK_WriteReg(R12, 0x00000000)  returns 0x00 (0000ms, 0447ms total)
T3228 001:128 JLINK_WriteReg(R13, 0x10000800)  returns 0x00 (0000ms, 0447ms total)
T3228 001:128 JLINK_WriteReg(R14, 0x10000001)  returns 0x00 (0000ms, 0447ms total)
T3228 001:128 JLINK_WriteReg(R15, 0x10000110)  returns 0x00 (0000ms, 0447ms total)
T3228 001:128 JLINK_WriteReg(XPSR, 0x01000000)  returns 0x00 (0000ms, 0447ms total)
T3228 001:128 JLINK_WriteReg(MSP, 0x10000800)  returns 0x00 (0000ms, 0447ms total)
T3228 001:128 JLINK_WriteReg(PSP, 0x10000800)  returns 0x00 (0000ms, 0447ms total)
T3228 001:128 JLINK_WriteReg(CFBP, 0x00000000)  returns 0x00 (0000ms, 0447ms total)
T3228 001:128 JLINK_SetBPEx(Addr = 0x10000000, Type = 0xFFFFFFF2)  returns 0x0000000D (0000ms, 0447ms total)
T3228 001:128 JLINK_Go() (0002ms, 0449ms total)
T3228 001:130 JLINK_IsHalted()  returns FALSE (0001ms, 0450ms total)
T3228 001:181 JLINK_IsHalted()  returns FALSE (0000ms, 0449ms total)
T3228 001:231 JLINK_IsHalted()  returns TRUE (0004ms, 0453ms total)
T3228 001:235 JLINK_ReadReg(R15)  returns 0x10000000 (0000ms, 0449ms total)
T3228 001:235 JLINK_ClrBPEx(BPHandle = 0x0000000D)  returns 0x00 (0000ms, 0449ms total)
T3228 001:235 JLINK_ReadReg(R0)  returns 0x00000000 (0000ms, 0449ms total)
T3228 001:236 JLINK_WriteReg(R0, 0x00006000)  returns 0x00 (0000ms, 0449ms total)
T3228 001:236 JLINK_WriteReg(R1, 0x00001000)  returns 0x00 (0000ms, 0449ms total)
T3228 001:236 JLINK_WriteReg(R2, 0x000000FF)  returns 0x00 (0000ms, 0449ms total)
T3228 001:236 JLINK_WriteReg(R3, 0x00000000)  returns 0x00 (0000ms, 0449ms total)
T3228 001:236 JLINK_WriteReg(R4, 0x00000000)  returns 0x00 (0000ms, 0449ms total)
T3228 001:236 JLINK_WriteReg(R5, 0x00000000)  returns 0x00 (0000ms, 0449ms total)
T3228 001:236 JLINK_WriteReg(R6, 0x00000000)  returns 0x00 (0000ms, 0449ms total)
T3228 001:236 JLINK_WriteReg(R7, 0x00000000)  returns 0x00 (0000ms, 0449ms total)
T3228 001:236 JLINK_WriteReg(R8, 0x00000000)  returns 0x00 (0000ms, 0449ms total)
T3228 001:236 JLINK_WriteReg(R9, 0x100001DC)  returns 0x00 (0000ms, 0449ms total)
T3228 001:236 JLINK_WriteReg(R10, 0x00000000)  returns 0x00 (0000ms, 0449ms total)
T3228 001:236 JLINK_WriteReg(R11, 0x00000000)  returns 0x00 (0000ms, 0449ms total)
T3228 001:236 JLINK_WriteReg(R12, 0x00000000)  returns 0x00 (0000ms, 0449ms total)
T3228 001:236 JLINK_WriteReg(R13, 0x10000800)  returns 0x00 (0000ms, 0449ms total)
T3228 001:236 JLINK_WriteReg(R14, 0x10000001)  returns 0x00 (0000ms, 0449ms total)
T3228 001:236 JLINK_WriteReg(R15, 0x10000020)  returns 0x00 (0000ms, 0449ms total)
T3228 001:236 JLINK_WriteReg(XPSR, 0x01000000)  returns 0x00 (0000ms, 0449ms total)
T3228 001:236 JLINK_WriteReg(MSP, 0x10000800)  returns 0x00 (0000ms, 0449ms total)
T3228 001:236 JLINK_WriteReg(PSP, 0x10000800)  returns 0x00 (0000ms, 0449ms total)
T3228 001:236 JLINK_WriteReg(CFBP, 0x00000000)  returns 0x00 (0000ms, 0449ms total)
T3228 001:236 JLINK_SetBPEx(Addr = 0x10000000, Type = 0xFFFFFFF2)  returns 0x0000000E (0000ms, 0449ms total)
T3228 001:236 JLINK_Go() (0003ms, 0452ms total)
T3228 001:239 JLINK_IsHalted()  returns TRUE (0005ms, 0457ms total)
T3228 001:244 JLINK_ReadReg(R15)  returns 0x10000000 (0000ms, 0452ms total)
T3228 001:244 JLINK_ClrBPEx(BPHandle = 0x0000000E)  returns 0x00 (0000ms, 0452ms total)
T3228 001:244 JLINK_ReadReg(R0)  returns 0x00000001 (0000ms, 0452ms total)
T3228 001:244 JLINK_WriteReg(R0, 0x00006000)  returns 0x00 (0000ms, 0452ms total)
T3228 001:244 JLINK_WriteReg(R1, 0x00001000)  returns 0x00 (0000ms, 0452ms total)
T3228 001:244 JLINK_WriteReg(R2, 0x000000FF)  returns 0x00 (0000ms, 0452ms total)
T3228 001:244 JLINK_WriteReg(R3, 0x00000000)  returns 0x00 (0000ms, 0452ms total)
T3228 001:244 JLINK_WriteReg(R4, 0x00000000)  returns 0x00 (0000ms, 0452ms total)
T3228 001:244 JLINK_WriteReg(R5, 0x00000000)  returns 0x00 (0000ms, 0452ms total)
T3228 001:244 JLINK_WriteReg(R6, 0x00000000)  returns 0x00 (0000ms, 0452ms total)
T3228 001:244 JLINK_WriteReg(R7, 0x00000000)  returns 0x00 (0000ms, 0452ms total)
T3228 001:244 JLINK_WriteReg(R8, 0x00000000)  returns 0x00 (0000ms, 0452ms total)
T3228 001:244 JLINK_WriteReg(R9, 0x100001DC)  returns 0x00 (0000ms, 0452ms total)
T3228 001:244 JLINK_WriteReg(R10, 0x00000000)  returns 0x00 (0000ms, 0452ms total)
T3228 001:244 JLINK_WriteReg(R11, 0x00000000)  returns 0x00 (0000ms, 0452ms total)
T3228 001:244 JLINK_WriteReg(R12, 0x00000000)  returns 0x00 (0000ms, 0452ms total)
T3228 001:244 JLINK_WriteReg(R13, 0x10000800)  returns 0x00 (0000ms, 0452ms total)
T3228 001:244 JLINK_WriteReg(R14, 0x10000001)  returns 0x00 (0000ms, 0452ms total)
T3228 001:244 JLINK_WriteReg(R15, 0x10000110)  returns 0x00 (0000ms, 0452ms total)
T3228 001:244 JLINK_WriteReg(XPSR, 0x01000000)  returns 0x00 (0000ms, 0452ms total)
T3228 001:244 JLINK_WriteReg(MSP, 0x10000800)  returns 0x00 (0000ms, 0452ms total)
T3228 001:244 JLINK_WriteReg(PSP, 0x10000800)  returns 0x00 (0000ms, 0452ms total)
T3228 001:244 JLINK_WriteReg(CFBP, 0x00000000)  returns 0x00 (0000ms, 0452ms total)
T3228 001:244 JLINK_SetBPEx(Addr = 0x10000000, Type = 0xFFFFFFF2)  returns 0x0000000F (0000ms, 0452ms total)
T3228 001:244 JLINK_Go() (0003ms, 0455ms total)
T3228 001:247 JLINK_IsHalted()  returns FALSE (0001ms, 0456ms total)
T3228 001:298 JLINK_IsHalted()  returns FALSE (0001ms, 0456ms total)
T3228 001:349 JLINK_IsHalted()  returns TRUE (0004ms, 0459ms total)
T3228 001:353 JLINK_ReadReg(R15)  returns 0x10000000 (0000ms, 0455ms total)
T3228 001:353 JLINK_ClrBPEx(BPHandle = 0x0000000F)  returns 0x00 (0000ms, 0455ms total)
T3228 001:353 JLINK_ReadReg(R0)  returns 0x00000000 (0000ms, 0455ms total)
T3228 001:354 JLINK_WriteReg(R0, 0x00007000)  returns 0x00 (0000ms, 0455ms total)
T3228 001:354 JLINK_WriteReg(R1, 0x00001000)  returns 0x00 (0000ms, 0455ms total)
T3228 001:354 JLINK_WriteReg(R2, 0x000000FF)  returns 0x00 (0000ms, 0455ms total)
T3228 001:354 JLINK_WriteReg(R3, 0x00000000)  returns 0x00 (0000ms, 0455ms total)
T3228 001:354 JLINK_WriteReg(R4, 0x00000000)  returns 0x00 (0000ms, 0455ms total)
T3228 001:354 JLINK_WriteReg(R5, 0x00000000)  returns 0x00 (0000ms, 0455ms total)
T3228 001:354 JLINK_WriteReg(R6, 0x00000000)  returns 0x00 (0000ms, 0455ms total)
T3228 001:354 JLINK_WriteReg(R7, 0x00000000)  returns 0x00 (0000ms, 0455ms total)
T3228 001:354 JLINK_WriteReg(R8, 0x00000000)  returns 0x00 (0000ms, 0455ms total)
T3228 001:354 JLINK_WriteReg(R9, 0x100001DC)  returns 0x00 (0000ms, 0455ms total)
T3228 001:354 JLINK_WriteReg(R10, 0x00000000)  returns 0x00 (0000ms, 0455ms total)
T3228 001:354 JLINK_WriteReg(R11, 0x00000000)  returns 0x00 (0000ms, 0455ms total)
T3228 001:354 JLINK_WriteReg(R12, 0x00000000)  returns 0x00 (0000ms, 0455ms total)
T3228 001:354 JLINK_WriteReg(R13, 0x10000800)  returns 0x00 (0000ms, 0455ms total)
T3228 001:354 JLINK_WriteReg(R14, 0x10000001)  returns 0x00 (0000ms, 0455ms total)
T3228 001:354 JLINK_WriteReg(R15, 0x10000020)  returns 0x00 (0000ms, 0455ms total)
T3228 001:354 JLINK_WriteReg(XPSR, 0x01000000)  returns 0x00 (0000ms, 0455ms total)
T3228 001:354 JLINK_WriteReg(MSP, 0x10000800)  returns 0x00 (0000ms, 0455ms total)
T3228 001:354 JLINK_WriteReg(PSP, 0x10000800)  returns 0x00 (0000ms, 0455ms total)
T3228 001:354 JLINK_WriteReg(CFBP, 0x00000000)  returns 0x00 (0000ms, 0455ms total)
T3228 001:354 JLINK_SetBPEx(Addr = 0x10000000, Type = 0xFFFFFFF2)  returns 0x00000010 (0000ms, 0455ms total)
T3228 001:354 JLINK_Go() (0003ms, 0458ms total)
T3228 001:357 JLINK_IsHalted()  returns TRUE (0004ms, 0462ms total)
T3228 001:361 JLINK_ReadReg(R15)  returns 0x10000000 (0000ms, 0458ms total)
T3228 001:361 JLINK_ClrBPEx(BPHandle = 0x00000010)  returns 0x00 (0000ms, 0458ms total)
T3228 001:361 JLINK_ReadReg(R0)  returns 0x00000001 (0000ms, 0458ms total)
T3228 001:361 JLINK_WriteReg(R0, 0x00007000)  returns 0x00 (0000ms, 0458ms total)
T3228 001:361 JLINK_WriteReg(R1, 0x00001000)  returns 0x00 (0000ms, 0458ms total)
T3228 001:361 JLINK_WriteReg(R2, 0x000000FF)  returns 0x00 (0000ms, 0458ms total)
T3228 001:361 JLINK_WriteReg(R3, 0x00000000)  returns 0x00 (0000ms, 0458ms total)
T3228 001:361 JLINK_WriteReg(R4, 0x00000000)  returns 0x00 (0000ms, 0458ms total)
T3228 001:361 JLINK_WriteReg(R5, 0x00000000)  returns 0x00 (0000ms, 0458ms total)
T3228 001:361 JLINK_WriteReg(R6, 0x00000000)  returns 0x00 (0000ms, 0458ms total)
T3228 001:361 JLINK_WriteReg(R7, 0x00000000)  returns 0x00 (0000ms, 0458ms total)
T3228 001:361 JLINK_WriteReg(R8, 0x00000000)  returns 0x00 (0000ms, 0458ms total)
T3228 001:361 JLINK_WriteReg(R9, 0x100001DC)  returns 0x00 (0000ms, 0458ms total)
T3228 001:361 JLINK_WriteReg(R10, 0x00000000)  returns 0x00 (0000ms, 0458ms total)
T3228 001:361 JLINK_WriteReg(R11, 0x00000000)  returns 0x00 (0000ms, 0458ms total)
T3228 001:361 JLINK_WriteReg(R12, 0x00000000)  returns 0x00 (0000ms, 0458ms total)
T3228 001:361 JLINK_WriteReg(R13, 0x10000800)  returns 0x00 (0000ms, 0458ms total)
T3228 001:361 JLINK_WriteReg(R14, 0x10000001)  returns 0x00 (0001ms, 0459ms total)
T3228 001:362 JLINK_WriteReg(R15, 0x10000110)  returns 0x00 (0000ms, 0459ms total)
T3228 001:362 JLINK_WriteReg(XPSR, 0x01000000)  returns 0x00 (0000ms, 0459ms total)
T3228 001:362 JLINK_WriteReg(MSP, 0x10000800)  returns 0x00 (0000ms, 0459ms total)
T3228 001:362 JLINK_WriteReg(PSP, 0x10000800)  returns 0x00 (0000ms, 0459ms total)
T3228 001:362 JLINK_WriteReg(CFBP, 0x00000000)  returns 0x00 (0000ms, 0459ms total)
T3228 001:362 JLINK_SetBPEx(Addr = 0x10000000, Type = 0xFFFFFFF2)  returns 0x00000011 (0000ms, 0459ms total)
T3228 001:362 JLINK_Go() (0002ms, 0461ms total)
T3228 001:364 JLINK_IsHalted()  returns FALSE (0001ms, 0462ms total)
T3228 001:415 JLINK_IsHalted()  returns FALSE (0001ms, 0462ms total)
T3228 001:466 JLINK_IsHalted()  returns TRUE (0004ms, 0465ms total)
T3228 001:470 JLINK_ReadReg(R15)  returns 0x10000000 (0000ms, 0461ms total)
T3228 001:470 JLINK_ClrBPEx(BPHandle = 0x00000011)  returns 0x00 (0000ms, 0461ms total)
T3228 001:470 JLINK_ReadReg(R0)  returns 0x00000000 (0000ms, 0461ms total)
T3228 001:470 JLINK_WriteReg(R0, 0x00008000)  returns 0x00 (0000ms, 0461ms total)
T3228 001:470 JLINK_WriteReg(R1, 0x00001000)  returns 0x00 (0001ms, 0462ms total)
T3228 001:471 JLINK_WriteReg(R2, 0x000000FF)  returns 0x00 (0000ms, 0462ms total)
T3228 001:471 JLINK_WriteReg(R3, 0x00000000)  returns 0x00 (0000ms, 0462ms total)
T3228 001:471 JLINK_WriteReg(R4, 0x00000000)  returns 0x00 (0000ms, 0462ms total)
T3228 001:471 JLINK_WriteReg(R5, 0x00000000)  returns 0x00 (0000ms, 0462ms total)
T3228 001:471 JLINK_WriteReg(R6, 0x00000000)  returns 0x00 (0000ms, 0462ms total)
T3228 001:471 JLINK_WriteReg(R7, 0x00000000)  returns 0x00 (0000ms, 0462ms total)
T3228 001:471 JLINK_WriteReg(R8, 0x00000000)  returns 0x00 (0000ms, 0462ms total)
T3228 001:471 JLINK_WriteReg(R9, 0x100001DC)  returns 0x00 (0000ms, 0462ms total)
T3228 001:471 JLINK_WriteReg(R10, 0x00000000)  returns 0x00 (0000ms, 0462ms total)
T3228 001:471 JLINK_WriteReg(R11, 0x00000000)  returns 0x00 (0000ms, 0462ms total)
T3228 001:471 JLINK_WriteReg(R12, 0x00000000)  returns 0x00 (0000ms, 0462ms total)
T3228 001:471 JLINK_WriteReg(R13, 0x10000800)  returns 0x00 (0000ms, 0462ms total)
T3228 001:471 JLINK_WriteReg(R14, 0x10000001)  returns 0x00 (0000ms, 0462ms total)
T3228 001:471 JLINK_WriteReg(R15, 0x10000020)  returns 0x00 (0000ms, 0462ms total)
T3228 001:471 JLINK_WriteReg(XPSR, 0x01000000)  returns 0x00 (0000ms, 0462ms total)
T3228 001:471 JLINK_WriteReg(MSP, 0x10000800)  returns 0x00 (0000ms, 0462ms total)
T3228 001:471 JLINK_WriteReg(PSP, 0x10000800)  returns 0x00 (0000ms, 0462ms total)
T3228 001:471 JLINK_WriteReg(CFBP, 0x00000000)  returns 0x00 (0000ms, 0462ms total)
T3228 001:471 JLINK_SetBPEx(Addr = 0x10000000, Type = 0xFFFFFFF2)  returns 0x00000012 (0000ms, 0462ms total)
T3228 001:471 JLINK_Go() (0003ms, 0465ms total)
T3228 001:474 JLINK_IsHalted()  returns TRUE (0005ms, 0470ms total)
T3228 001:479 JLINK_ReadReg(R15)  returns 0x10000000 (0000ms, 0465ms total)
T3228 001:479 JLINK_ClrBPEx(BPHandle = 0x00000012)  returns 0x00 (0000ms, 0465ms total)
T3228 001:479 JLINK_ReadReg(R0)  returns 0x00000001 (0000ms, 0465ms total)
T3228 001:479 JLINK_WriteReg(R0, 0x00008000)  returns 0x00 (0000ms, 0465ms total)
T3228 001:479 JLINK_WriteReg(R1, 0x00001000)  returns 0x00 (0000ms, 0465ms total)
T3228 001:479 JLINK_WriteReg(R2, 0x000000FF)  returns 0x00 (0000ms, 0465ms total)
T3228 001:479 JLINK_WriteReg(R3, 0x00000000)  returns 0x00 (0000ms, 0465ms total)
T3228 001:479 JLINK_WriteReg(R4, 0x00000000)  returns 0x00 (0000ms, 0465ms total)
T3228 001:479 JLINK_WriteReg(R5, 0x00000000)  returns 0x00 (0000ms, 0465ms total)
T3228 001:479 JLINK_WriteReg(R6, 0x00000000)  returns 0x00 (0000ms, 0465ms total)
T3228 001:479 JLINK_WriteReg(R7, 0x00000000)  returns 0x00 (0000ms, 0465ms total)
T3228 001:479 JLINK_WriteReg(R8, 0x00000000)  returns 0x00 (0000ms, 0465ms total)
T3228 001:479 JLINK_WriteReg(R9, 0x100001DC)  returns 0x00 (0000ms, 0465ms total)
T3228 001:479 JLINK_WriteReg(R10, 0x00000000)  returns 0x00 (0000ms, 0465ms total)
T3228 001:479 JLINK_WriteReg(R11, 0x00000000)  returns 0x00 (0000ms, 0465ms total)
T3228 001:479 JLINK_WriteReg(R12, 0x00000000)  returns 0x00 (0000ms, 0465ms total)
T3228 001:479 JLINK_WriteReg(R13, 0x10000800)  returns 0x00 (0000ms, 0465ms total)
T3228 001:479 JLINK_WriteReg(R14, 0x10000001)  returns 0x00 (0000ms, 0465ms total)
T3228 001:479 JLINK_WriteReg(R15, 0x10000110)  returns 0x00 (0000ms, 0465ms total)
T3228 001:479 JLINK_WriteReg(XPSR, 0x01000000)  returns 0x00 (0000ms, 0465ms total)
T3228 001:479 JLINK_WriteReg(MSP, 0x10000800)  returns 0x00 (0000ms, 0465ms total)
T3228 001:479 JLINK_WriteReg(PSP, 0x10000800)  returns 0x00 (0000ms, 0465ms total)
T3228 001:479 JLINK_WriteReg(CFBP, 0x00000000)  returns 0x00 (0000ms, 0465ms total)
T3228 001:479 JLINK_SetBPEx(Addr = 0x10000000, Type = 0xFFFFFFF2)  returns 0x00000013 (0000ms, 0465ms total)
T3228 001:479 JLINK_Go() (0003ms, 0468ms total)
T3228 001:482 JLINK_IsHalted()  returns FALSE (0001ms, 0469ms total)
T3228 001:533 JLINK_IsHalted()  returns FALSE (0001ms, 0469ms total)
T3228 001:584 JLINK_IsHalted()  returns TRUE (0004ms, 0472ms total)
T3228 001:588 JLINK_ReadReg(R15)  returns 0x10000000 (0000ms, 0468ms total)
T3228 001:588 JLINK_ClrBPEx(BPHandle = 0x00000013)  returns 0x00 (0000ms, 0468ms total)
T3228 001:588 JLINK_ReadReg(R0)  returns 0x00000000 (0000ms, 0468ms total)
T3228 001:589 JLINK_WriteReg(R0, 0x00000001)  returns 0x00 (0001ms, 0469ms total)
T3228 001:590 JLINK_WriteReg(R1, 0x00001000)  returns 0x00 (0000ms, 0469ms total)
T3228 001:590 JLINK_WriteReg(R2, 0x000000FF)  returns 0x00 (0000ms, 0469ms total)
T3228 001:590 JLINK_WriteReg(R3, 0x00000000)  returns 0x00 (0000ms, 0469ms total)
T3228 001:590 JLINK_WriteReg(R4, 0x00000000)  returns 0x00 (0000ms, 0469ms total)
T3228 001:590 JLINK_WriteReg(R5, 0x00000000)  returns 0x00 (0000ms, 0469ms total)
T3228 001:590 JLINK_WriteReg(R6, 0x00000000)  returns 0x00 (0000ms, 0469ms total)
T3228 001:590 JLINK_WriteReg(R7, 0x00000000)  returns 0x00 (0000ms, 0469ms total)
T3228 001:590 JLINK_WriteReg(R8, 0x00000000)  returns 0x00 (0000ms, 0469ms total)
T3228 001:590 JLINK_WriteReg(R9, 0x100001DC)  returns 0x00 (0000ms, 0469ms total)
T3228 001:590 JLINK_WriteReg(R10, 0x00000000)  returns 0x00 (0000ms, 0469ms total)
T3228 001:590 JLINK_WriteReg(R11, 0x00000000)  returns 0x00 (0000ms, 0469ms total)
T3228 001:590 JLINK_WriteReg(R12, 0x00000000)  returns 0x00 (0000ms, 0469ms total)
T3228 001:590 JLINK_WriteReg(R13, 0x10000800)  returns 0x00 (0000ms, 0469ms total)
T3228 001:590 JLINK_WriteReg(R14, 0x10000001)  returns 0x00 (0000ms, 0469ms total)
T3228 001:590 JLINK_WriteReg(R15, 0x100000CC)  returns 0x00 (0000ms, 0469ms total)
T3228 001:590 JLINK_WriteReg(XPSR, 0x01000000)  returns 0x00 (0000ms, 0469ms total)
T3228 001:590 JLINK_WriteReg(MSP, 0x10000800)  returns 0x00 (0000ms, 0469ms total)
